<Qucs Dataset 0.0.24>
<indep frequency 335>
1.000000000000e+04
1.013883426634e+04
1.027959602804e+04
1.042231204532e+04
1.056700944996e+04
1.071371575040e+04
1.086245883700e+04
1.101326698734e+04
1.116616887156e+04
1.132119355787e+04
1.147837051804e+04
1.163772963301e+04
1.179930119856e+04
1.196311593109e+04
1.212920497343e+04
1.229759990081e+04
1.246833272681e+04
1.264143590948e+04
1.281694235748e+04
1.299488543637e+04
1.317529897495e+04
1.335821727165e+04
1.354367510111e+04
1.373170772073e+04
1.392235087744e+04
1.411564081442e+04
1.431161427806e+04
1.451030852491e+04
1.471176132875e+04
1.491601098782e+04
1.512309633205e+04
1.533305673046e+04
1.554593209865e+04
1.576176290641e+04
1.598059018534e+04
1.620245553675e+04
1.642740113949e+04
1.665546975800e+04
1.688670475045e+04
1.712115007695e+04
1.735885030793e+04
1.759985063264e+04
1.784419686767e+04
1.809193546573e+04
1.834311352444e+04
1.859777879530e+04
1.885597969276e+04
1.911776530344e+04
1.938318539545e+04
1.965229042782e+04
1.992513156017e+04
2.020176066236e+04
2.048223032440e+04
2.076659386642e+04
2.105490534880e+04
2.134721958251e+04
2.164359213942e+04
2.194407936299e+04
2.224873837889e+04
2.255762710587e+04
2.287080426684e+04
2.318832939995e+04
2.351026286994e+04
2.383666587965e+04
2.416760048159e+04
2.450312958980e+04
2.484331699177e+04
2.518822736058e+04
2.553792626719e+04
2.589248019291e+04
2.625195654205e+04
2.661642365470e+04
2.698595081978e+04
2.736060828814e+04
2.774046728598e+04
2.812560002834e+04
2.851607973288e+04
2.891198063375e+04
2.931337799573e+04
2.972034812853e+04
3.013296840132e+04
3.055131725739e+04
3.097547422911e+04
3.140551995304e+04
3.184153618521e+04
3.228360581676e+04
3.273181288961e+04
3.318624261247e+04
3.364698137704e+04
3.411411677446e+04
3.458773761189e+04
3.506793392947e+04
3.555479701739e+04
3.604841943328e+04
3.654889501976e+04
3.705631892233e+04
3.757078760742e+04
3.809239888076e+04
3.862125190594e+04
3.915744722330e+04
3.970108676901e+04
4.025227389447e+04
4.081111338594e+04
4.137771148450e+04
4.195217590619e+04
4.253461586253e+04
4.312514208127e+04
4.372386682745e+04
4.433090392471e+04
4.494636877698e+04
4.557037839037e+04
4.620305139545e+04
4.684450806978e+04
4.749487036078e+04
4.815426190894e+04
4.882280807128e+04
4.950063594521e+04
5.018787439271e+04
5.088465406477e+04
5.159110742628e+04
5.230736878122e+04
5.303357429812e+04
5.376986203604e+04
5.451637197075e+04
5.527324602137e+04
5.604062807735e+04
5.681866402580e+04
5.760750177925e+04
5.840729130379e+04
5.921818464751e+04
6.004033596948e+04
6.087390156900e+04
6.171903991538e+04
6.257591167798e+04
6.344467975683e+04
6.432550931357e+04
6.521856780283e+04
6.612402500412e+04
6.704205305402e+04
6.797282647901e+04
6.891652222855e+04
6.987331970880e+04
7.084340081667e+04
7.182694997442e+04
7.282415416476e+04
7.383520296630e+04
7.486028858971e+04
7.589960591416e+04
7.695335252444e+04
7.802172874847e+04
7.910493769543e+04
8.020318529433e+04
8.131668033320e+04
8.244563449875e+04
8.359026241662e+04
8.475078169222e+04
8.592741295204e+04
8.712037988563e+04
8.832990928812e+04
8.955623110333e+04
9.079957846749e+04
9.206018775357e+04
9.333829861618e+04
9.463415403718e+04
9.594800037185e+04
9.728008739572e+04
9.863066835205e+04
1.000000000000e+05
1.013883426634e+05
1.027959602804e+05
1.042231204532e+05
1.056700944996e+05
1.071371575040e+05
1.086245883700e+05
1.101326698734e+05
1.116616887156e+05
1.132119355787e+05
1.147837051804e+05
1.163772963301e+05
1.179930119856e+05
1.196311593109e+05
1.212920497343e+05
1.229759990081e+05
1.246833272681e+05
1.264143590948e+05
1.281694235748e+05
1.299488543637e+05
1.317529897495e+05
1.335821727165e+05
1.354367510111e+05
1.373170772073e+05
1.392235087744e+05
1.411564081442e+05
1.431161427806e+05
1.451030852491e+05
1.471176132876e+05
1.491601098782e+05
1.512309633205e+05
1.533305673046e+05
1.554593209865e+05
1.576176290641e+05
1.598059018534e+05
1.620245553675e+05
1.642740113949e+05
1.665546975800e+05
1.688670475045e+05
1.712115007695e+05
1.735885030793e+05
1.759985063264e+05
1.784419686767e+05
1.809193546573e+05
1.834311352444e+05
1.859777879530e+05
1.885597969276e+05
1.911776530344e+05
1.938318539545e+05
1.965229042782e+05
1.992513156017e+05
2.020176066236e+05
2.048223032440e+05
2.076659386642e+05
2.105490534881e+05
2.134721958251e+05
2.164359213943e+05
2.194407936299e+05
2.224873837889e+05
2.255762710587e+05
2.287080426684e+05
2.318832939995e+05
2.351026286994e+05
2.383666587965e+05
2.416760048159e+05
2.450312958981e+05
2.484331699177e+05
2.518822736058e+05
2.553792626719e+05
2.589248019291e+05
2.625195654205e+05
2.661642365470e+05
2.698595081978e+05
2.736060828814e+05
2.774046728598e+05
2.812560002834e+05
2.851607973288e+05
2.891198063375e+05
2.931337799573e+05
2.972034812853e+05
3.013296840132e+05
3.055131725739e+05
3.097547422911e+05
3.140551995304e+05
3.184153618521e+05
3.228360581676e+05
3.273181288961e+05
3.318624261247e+05
3.364698137704e+05
3.411411677446e+05
3.458773761189e+05
3.506793392947e+05
3.555479701739e+05
3.604841943328e+05
3.654889501976e+05
3.705631892233e+05
3.757078760742e+05
3.809239888076e+05
3.862125190594e+05
3.915744722330e+05
3.970108676901e+05
4.025227389447e+05
4.081111338595e+05
4.137771148450e+05
4.195217590619e+05
4.253461586253e+05
4.312514208127e+05
4.372386682745e+05
4.433090392471e+05
4.494636877698e+05
4.557037839037e+05
4.620305139545e+05
4.684450806978e+05
4.749487036078e+05
4.815426190894e+05
4.882280807128e+05
4.950063594521e+05
5.018787439271e+05
5.088465406477e+05
5.159110742629e+05
5.230736878122e+05
5.303357429812e+05
5.376986203604e+05
5.451637197075e+05
5.527324602137e+05
5.604062807735e+05
5.681866402580e+05
5.760750177926e+05
5.840729130379e+05
5.921818464751e+05
6.004033596948e+05
6.087390156901e+05
6.171903991538e+05
6.257591167798e+05
6.344467975683e+05
6.432550931357e+05
6.521856780284e+05
6.612402500412e+05
6.704205305402e+05
6.797282647901e+05
6.891652222855e+05
6.987331970880e+05
7.084340081667e+05
7.182694997443e+05
7.282415416476e+05
7.383520296631e+05
7.486028858971e+05
7.589960591417e+05
7.695335252444e+05
7.802172874848e+05
7.910493769543e+05
8.020318529433e+05
8.131668033320e+05
8.244563449875e+05
8.359026241662e+05
8.475078169222e+05
8.592741295204e+05
8.712037988563e+05
8.832990928812e+05
8.955623110333e+05
9.079957846750e+05
9.206018775357e+05
9.333829861618e+05
9.463415403719e+05
9.594800037185e+05
9.728008739572e+05
9.863066835205e+05
1.000000000000e+06
</indep>
<dep ac.v(v_in) frequency>
7.071067810000e-01+j0.000000000000e+00
7.071067810000e-01+j0.000000000000e+00
7.071067810000e-01+j0.000000000000e+00
7.071067810000e-01+j0.000000000000e+00
7.071067810000e-01+j0.000000000000e+00
7.071067810000e-01+j0.000000000000e+00
7.071067810000e-01+j0.000000000000e+00
7.071067810000e-01+j0.000000000000e+00
7.071067810000e-01+j0.000000000000e+00
7.071067810000e-01+j0.000000000000e+00
7.071067810000e-01+j0.000000000000e+00
7.071067810000e-01+j0.000000000000e+00
7.071067810000e-01+j0.000000000000e+00
7.071067810000e-01+j0.000000000000e+00
7.071067810000e-01+j0.000000000000e+00
7.071067810000e-01+j0.000000000000e+00
7.071067810000e-01+j0.000000000000e+00
7.071067810000e-01+j0.000000000000e+00
7.071067810000e-01+j0.000000000000e+00
7.071067810000e-01+j0.000000000000e+00
7.071067810000e-01+j0.000000000000e+00
7.071067810000e-01+j0.000000000000e+00
7.071067810000e-01+j0.000000000000e+00
7.071067810000e-01+j0.000000000000e+00
7.071067810000e-01+j0.000000000000e+00
7.071067810000e-01+j0.000000000000e+00
7.071067810000e-01+j0.000000000000e+00
7.071067810000e-01+j0.000000000000e+00
7.071067810000e-01+j0.000000000000e+00
7.071067810000e-01+j0.000000000000e+00
7.071067810000e-01+j0.000000000000e+00
7.071067810000e-01+j0.000000000000e+00
7.071067810000e-01+j0.000000000000e+00
7.071067810000e-01+j0.000000000000e+00
7.071067810000e-01+j0.000000000000e+00
7.071067810000e-01+j0.000000000000e+00
7.071067810000e-01+j0.000000000000e+00
7.071067810000e-01+j0.000000000000e+00
7.071067810000e-01+j0.000000000000e+00
7.071067810000e-01+j0.000000000000e+00
7.071067810000e-01+j0.000000000000e+00
7.071067810000e-01+j0.000000000000e+00
7.071067810000e-01+j0.000000000000e+00
7.071067810000e-01+j0.000000000000e+00
7.071067810000e-01+j0.000000000000e+00
7.071067810000e-01+j0.000000000000e+00
7.071067810000e-01+j0.000000000000e+00
7.071067810000e-01+j0.000000000000e+00
7.071067810000e-01+j0.000000000000e+00
7.071067810000e-01+j0.000000000000e+00
7.071067810000e-01+j0.000000000000e+00
7.071067810000e-01+j0.000000000000e+00
7.071067810000e-01+j0.000000000000e+00
7.071067810000e-01+j0.000000000000e+00
7.071067810000e-01+j0.000000000000e+00
7.071067810000e-01+j0.000000000000e+00
7.071067810000e-01+j0.000000000000e+00
7.071067810000e-01+j0.000000000000e+00
7.071067810000e-01+j0.000000000000e+00
7.071067810000e-01+j0.000000000000e+00
7.071067810000e-01+j0.000000000000e+00
7.071067810000e-01+j0.000000000000e+00
7.071067810000e-01+j0.000000000000e+00
7.071067810000e-01+j0.000000000000e+00
7.071067810000e-01+j0.000000000000e+00
7.071067810000e-01+j0.000000000000e+00
7.071067810000e-01+j0.000000000000e+00
7.071067810000e-01+j0.000000000000e+00
7.071067810000e-01+j0.000000000000e+00
7.071067810000e-01+j0.000000000000e+00
7.071067810000e-01+j0.000000000000e+00
7.071067810000e-01+j0.000000000000e+00
7.071067810000e-01+j0.000000000000e+00
7.071067810000e-01+j0.000000000000e+00
7.071067810000e-01+j0.000000000000e+00
7.071067810000e-01+j0.000000000000e+00
7.071067810000e-01+j0.000000000000e+00
7.071067810000e-01+j0.000000000000e+00
7.071067810000e-01+j0.000000000000e+00
7.071067810000e-01+j0.000000000000e+00
7.071067810000e-01+j0.000000000000e+00
7.071067810000e-01+j0.000000000000e+00
7.071067810000e-01+j0.000000000000e+00
7.071067810000e-01+j0.000000000000e+00
7.071067810000e-01+j0.000000000000e+00
7.071067810000e-01+j0.000000000000e+00
7.071067810000e-01+j0.000000000000e+00
7.071067810000e-01+j0.000000000000e+00
7.071067810000e-01+j0.000000000000e+00
7.071067810000e-01+j0.000000000000e+00
7.071067810000e-01+j0.000000000000e+00
7.071067810000e-01+j0.000000000000e+00
7.071067810000e-01+j0.000000000000e+00
7.071067810000e-01+j0.000000000000e+00
7.071067810000e-01+j0.000000000000e+00
7.071067810000e-01+j0.000000000000e+00
7.071067810000e-01+j0.000000000000e+00
7.071067810000e-01+j0.000000000000e+00
7.071067810000e-01+j0.000000000000e+00
7.071067810000e-01+j0.000000000000e+00
7.071067810000e-01+j0.000000000000e+00
7.071067810000e-01+j0.000000000000e+00
7.071067810000e-01+j0.000000000000e+00
7.071067810000e-01+j0.000000000000e+00
7.071067810000e-01+j0.000000000000e+00
7.071067810000e-01+j0.000000000000e+00
7.071067810000e-01+j0.000000000000e+00
7.071067810000e-01+j0.000000000000e+00
7.071067810000e-01+j0.000000000000e+00
7.071067810000e-01+j0.000000000000e+00
7.071067810000e-01+j0.000000000000e+00
7.071067810000e-01+j0.000000000000e+00
7.071067810000e-01+j0.000000000000e+00
7.071067810000e-01+j0.000000000000e+00
7.071067810000e-01+j0.000000000000e+00
7.071067810000e-01+j0.000000000000e+00
7.071067810000e-01+j0.000000000000e+00
7.071067810000e-01+j0.000000000000e+00
7.071067810000e-01+j0.000000000000e+00
7.071067810000e-01+j0.000000000000e+00
7.071067810000e-01+j0.000000000000e+00
7.071067810000e-01+j0.000000000000e+00
7.071067810000e-01+j0.000000000000e+00
7.071067810000e-01+j0.000000000000e+00
7.071067810000e-01+j0.000000000000e+00
7.071067810000e-01+j0.000000000000e+00
7.071067810000e-01+j0.000000000000e+00
7.071067810000e-01+j0.000000000000e+00
7.071067810000e-01+j0.000000000000e+00
7.071067810000e-01+j0.000000000000e+00
7.071067810000e-01+j0.000000000000e+00
7.071067810000e-01+j0.000000000000e+00
7.071067810000e-01+j0.000000000000e+00
7.071067810000e-01+j0.000000000000e+00
7.071067810000e-01+j0.000000000000e+00
7.071067810000e-01+j0.000000000000e+00
7.071067810000e-01+j0.000000000000e+00
7.071067810000e-01+j0.000000000000e+00
7.071067810000e-01+j0.000000000000e+00
7.071067810000e-01+j0.000000000000e+00
7.071067810000e-01+j0.000000000000e+00
7.071067810000e-01+j0.000000000000e+00
7.071067810000e-01+j0.000000000000e+00
7.071067810000e-01+j0.000000000000e+00
7.071067810000e-01+j0.000000000000e+00
7.071067810000e-01+j0.000000000000e+00
7.071067810000e-01+j0.000000000000e+00
7.071067810000e-01+j0.000000000000e+00
7.071067810000e-01+j0.000000000000e+00
7.071067810000e-01+j0.000000000000e+00
7.071067810000e-01+j0.000000000000e+00
7.071067810000e-01+j0.000000000000e+00
7.071067810000e-01+j0.000000000000e+00
7.071067810000e-01+j0.000000000000e+00
7.071067810000e-01+j0.000000000000e+00
7.071067810000e-01+j0.000000000000e+00
7.071067810000e-01+j0.000000000000e+00
7.071067810000e-01+j0.000000000000e+00
7.071067810000e-01+j0.000000000000e+00
7.071067810000e-01+j0.000000000000e+00
7.071067810000e-01+j0.000000000000e+00
7.071067810000e-01+j0.000000000000e+00
7.071067810000e-01+j0.000000000000e+00
7.071067810000e-01+j0.000000000000e+00
7.071067810000e-01+j0.000000000000e+00
7.071067810000e-01+j0.000000000000e+00
7.071067810000e-01+j0.000000000000e+00
7.071067810000e-01+j0.000000000000e+00
7.071067810000e-01+j0.000000000000e+00
7.071067810000e-01+j0.000000000000e+00
7.071067810000e-01+j0.000000000000e+00
7.071067810000e-01+j0.000000000000e+00
7.071067810000e-01+j0.000000000000e+00
7.071067810000e-01+j0.000000000000e+00
7.071067810000e-01+j0.000000000000e+00
7.071067810000e-01+j0.000000000000e+00
7.071067810000e-01+j0.000000000000e+00
7.071067810000e-01+j0.000000000000e+00
7.071067810000e-01+j0.000000000000e+00
7.071067810000e-01+j0.000000000000e+00
7.071067810000e-01+j0.000000000000e+00
7.071067810000e-01+j0.000000000000e+00
7.071067810000e-01+j0.000000000000e+00
7.071067810000e-01+j0.000000000000e+00
7.071067810000e-01+j0.000000000000e+00
7.071067810000e-01+j0.000000000000e+00
7.071067810000e-01+j0.000000000000e+00
7.071067810000e-01+j0.000000000000e+00
7.071067810000e-01+j0.000000000000e+00
7.071067810000e-01+j0.000000000000e+00
7.071067810000e-01+j0.000000000000e+00
7.071067810000e-01+j0.000000000000e+00
7.071067810000e-01+j0.000000000000e+00
7.071067810000e-01+j0.000000000000e+00
7.071067810000e-01+j0.000000000000e+00
7.071067810000e-01+j0.000000000000e+00
7.071067810000e-01+j0.000000000000e+00
7.071067810000e-01+j0.000000000000e+00
7.071067810000e-01+j0.000000000000e+00
7.071067810000e-01+j0.000000000000e+00
7.071067810000e-01+j0.000000000000e+00
7.071067810000e-01+j0.000000000000e+00
7.071067810000e-01+j0.000000000000e+00
7.071067810000e-01+j0.000000000000e+00
7.071067810000e-01+j0.000000000000e+00
7.071067810000e-01+j0.000000000000e+00
7.071067810000e-01+j0.000000000000e+00
7.071067810000e-01+j0.000000000000e+00
7.071067810000e-01+j0.000000000000e+00
7.071067810000e-01+j0.000000000000e+00
7.071067810000e-01+j0.000000000000e+00
7.071067810000e-01+j0.000000000000e+00
7.071067810000e-01+j0.000000000000e+00
7.071067810000e-01+j0.000000000000e+00
7.071067810000e-01+j0.000000000000e+00
7.071067810000e-01+j0.000000000000e+00
7.071067810000e-01+j0.000000000000e+00
7.071067810000e-01+j0.000000000000e+00
7.071067810000e-01+j0.000000000000e+00
7.071067810000e-01+j0.000000000000e+00
7.071067810000e-01+j0.000000000000e+00
7.071067810000e-01+j0.000000000000e+00
7.071067810000e-01+j0.000000000000e+00
7.071067810000e-01+j0.000000000000e+00
7.071067810000e-01+j0.000000000000e+00
7.071067810000e-01+j0.000000000000e+00
7.071067810000e-01+j0.000000000000e+00
7.071067810000e-01+j0.000000000000e+00
7.071067810000e-01+j0.000000000000e+00
7.071067810000e-01+j0.000000000000e+00
7.071067810000e-01+j0.000000000000e+00
7.071067810000e-01+j0.000000000000e+00
7.071067810000e-01+j0.000000000000e+00
7.071067810000e-01+j0.000000000000e+00
7.071067810000e-01+j0.000000000000e+00
7.071067810000e-01+j0.000000000000e+00
7.071067810000e-01+j0.000000000000e+00
7.071067810000e-01+j0.000000000000e+00
7.071067810000e-01+j0.000000000000e+00
7.071067810000e-01+j0.000000000000e+00
7.071067810000e-01+j0.000000000000e+00
7.071067810000e-01+j0.000000000000e+00
7.071067810000e-01+j0.000000000000e+00
7.071067810000e-01+j0.000000000000e+00
7.071067810000e-01+j0.000000000000e+00
7.071067810000e-01+j0.000000000000e+00
7.071067810000e-01+j0.000000000000e+00
7.071067810000e-01+j0.000000000000e+00
7.071067810000e-01+j0.000000000000e+00
7.071067810000e-01+j0.000000000000e+00
7.071067810000e-01+j0.000000000000e+00
7.071067810000e-01+j0.000000000000e+00
7.071067810000e-01+j0.000000000000e+00
7.071067810000e-01+j0.000000000000e+00
7.071067810000e-01+j0.000000000000e+00
7.071067810000e-01+j0.000000000000e+00
7.071067810000e-01+j0.000000000000e+00
7.071067810000e-01+j0.000000000000e+00
7.071067810000e-01+j0.000000000000e+00
7.071067810000e-01+j0.000000000000e+00
7.071067810000e-01+j0.000000000000e+00
7.071067810000e-01+j0.000000000000e+00
7.071067810000e-01+j0.000000000000e+00
7.071067810000e-01+j0.000000000000e+00
7.071067810000e-01+j0.000000000000e+00
7.071067810000e-01+j0.000000000000e+00
7.071067810000e-01+j0.000000000000e+00
7.071067810000e-01+j0.000000000000e+00
7.071067810000e-01+j0.000000000000e+00
7.071067810000e-01+j0.000000000000e+00
7.071067810000e-01+j0.000000000000e+00
7.071067810000e-01+j0.000000000000e+00
7.071067810000e-01+j0.000000000000e+00
7.071067810000e-01+j0.000000000000e+00
7.071067810000e-01+j0.000000000000e+00
7.071067810000e-01+j0.000000000000e+00
7.071067810000e-01+j0.000000000000e+00
7.071067810000e-01+j0.000000000000e+00
7.071067810000e-01+j0.000000000000e+00
7.071067810000e-01+j0.000000000000e+00
7.071067810000e-01+j0.000000000000e+00
7.071067810000e-01+j0.000000000000e+00
7.071067810000e-01+j0.000000000000e+00
7.071067810000e-01+j0.000000000000e+00
7.071067810000e-01+j0.000000000000e+00
7.071067810000e-01+j0.000000000000e+00
7.071067810000e-01+j0.000000000000e+00
7.071067810000e-01+j0.000000000000e+00
7.071067810000e-01+j0.000000000000e+00
7.071067810000e-01+j0.000000000000e+00
7.071067810000e-01+j0.000000000000e+00
7.071067810000e-01+j0.000000000000e+00
7.071067810000e-01+j0.000000000000e+00
7.071067810000e-01+j0.000000000000e+00
7.071067810000e-01+j0.000000000000e+00
7.071067810000e-01+j0.000000000000e+00
7.071067810000e-01+j0.000000000000e+00
7.071067810000e-01+j0.000000000000e+00
7.071067810000e-01+j0.000000000000e+00
7.071067810000e-01+j0.000000000000e+00
7.071067810000e-01+j0.000000000000e+00
7.071067810000e-01+j0.000000000000e+00
7.071067810000e-01+j0.000000000000e+00
7.071067810000e-01+j0.000000000000e+00
7.071067810000e-01+j0.000000000000e+00
7.071067810000e-01+j0.000000000000e+00
7.071067810000e-01+j0.000000000000e+00
7.071067810000e-01+j0.000000000000e+00
7.071067810000e-01+j0.000000000000e+00
7.071067810000e-01+j0.000000000000e+00
7.071067810000e-01+j0.000000000000e+00
7.071067810000e-01+j0.000000000000e+00
7.071067810000e-01+j0.000000000000e+00
7.071067810000e-01+j0.000000000000e+00
7.071067810000e-01+j0.000000000000e+00
7.071067810000e-01+j0.000000000000e+00
7.071067810000e-01+j0.000000000000e+00
7.071067810000e-01+j0.000000000000e+00
7.071067810000e-01+j0.000000000000e+00
7.071067810000e-01+j0.000000000000e+00
7.071067810000e-01+j0.000000000000e+00
7.071067810000e-01+j0.000000000000e+00
7.071067810000e-01+j0.000000000000e+00
7.071067810000e-01+j0.000000000000e+00
7.071067810000e-01+j0.000000000000e+00
7.071067810000e-01+j0.000000000000e+00
7.071067810000e-01+j0.000000000000e+00
7.071067810000e-01+j0.000000000000e+00
7.071067810000e-01+j0.000000000000e+00
7.071067810000e-01+j0.000000000000e+00
7.071067810000e-01+j0.000000000000e+00
7.071067810000e-01+j0.000000000000e+00
7.071067810000e-01+j0.000000000000e+00
7.071067810000e-01+j0.000000000000e+00
7.071067810000e-01+j0.000000000000e+00
</dep>
<dep ac.v(v_out) frequency>
-5.684106391441e-04-j2.787541848929e-03
-6.009842305011e-04-j2.905222966841e-03
-6.354352884705e-04-j3.027870779784e-03
-6.718729971688e-04-j3.155694780026e-03
-7.104129787103e-04-j3.288913283908e-03
-7.511776809638e-04-j3.427753802208e-03
-7.942967894240e-04-j3.572453425899e-03
-8.399076647687e-04-j3.723259227923e-03
-8.881558077810e-04-j3.880428681608e-03
-9.391953534357e-04-j4.044230096411e-03
-9.931895960748e-04-j4.214943071661e-03
